"Time","V(in)","V(out)","I(L1)","I(Ro)"
0,0,0,0,0
2.5e-08,0.0188464554469,1.62271239625523e-07,4.71175544060188e-06,1.29816991700419e-07
2.55010308969353e-08,0.0192241617059645,1.65588905811453e-07,4.80807720295446e-06,1.32471124649162e-07
2.65030926908059e-08,0.0199795742240934,1.72375441007102e-07,5.00505725686949e-06,1.37900352805682e-07
2.85072162785471e-08,0.0214903992603512,1.86781685422792e-07,5.42260853185852e-06,1.49425348338234e-07
3.25154634540295e-08,0.0245120493328669,2.19013904801683e-07,6.35172224972613e-06,1.75211123841347e-07
4.05319578049943e-08,0.0305553494778983,2.97898260263724e-07,8.58472024299048e-06,2.38318608210979e-07
5.6564946506924e-08,0.042641949767961,5.19394608735384e-07,1.45451991871777e-05,4.15515686988307e-07
7.9701034881452e-08,0.0600832801186044,1.00829159671942e-06,2.66018110613192e-05,8.06633277375537e-07
1.10452504525004e-07,0.0832655282211606,2.02476091067473e-06,4.89176338840978e-05,1.61980872853979e-06
1.50638336939625e-07,0.11355994822911,4.11695900166873e-06,8.88864891328271e-05,3.29356720133499e-06
2.04550284986097e-07,0.154201913305647,8.59802830455366e-06,0.000161742157641898,6.87842264364292e-06
2.76580526972194e-07,0.208502503162463,1.83086311601353e-05,0.000293449568503996,1.46469049281083e-05
3.74322746681011e-07,0.282186278723396,4.0062165168956e-05,0.000535016294775993,3.20497321351648e-05
5.0617925983136e-07,0.381582797576566,8.92393218681362e-05,0.000975439865399029,7.1391457494509e-05
6.86238385461525e-07,0.517187891080272,0.000203325993669054,0.00178910904014642,0.000162660794935243
9.31676313513749e-07,0.7020306923901,0.000470240838357501,0.00329226191685807,0.000376192670686001
1.18167631351375e-06,0.890039066103263,0.000903830132151006,0.00528737428259904,0.000723064105720805
1.43167631351375e-06,1.07794582883726,0.00153319175991592,0.00774970056000327,0.00122655340793274
1.68167631351375e-06,1.26544764142057,0.00238859293069697,0.010678033067447,0.00191087434455757
1.93167631351375e-06,1.45279716289557,0.00349781820905776,0.0140710406886817,0.00279825456724621
2.18167631351375e-06,1.63960737269641,0.00488633772615831,0.0179271309519793,0.00390907018092664
2.43167631351375e-06,1.82621476155141,0.00657747089309448,0.0222446022029313,0.00526197671447558
2.68167631351375e-06,2.01214900944844,0.00859253133060401,0.0270215036468305,0.00687402506448321
2.93167631351375e-06,2.19783010672344,0.0109509686888525,0.0322557867261902,0.00876077495108201
3.18167631351375e-06,2.38270489805973,0.0136704932460205,0.0379451654372693,0.0109363945968164
3.43167631351375e-06,2.56727645892473,0.0167671985817355,0.0440872652319717,0.0134137588653884
3.68167631351375e-06,2.75090934460163,0.02025566850575,0.0506794851695189,0.0162045348046
3.93167631351375e-06,2.93418921921163,0.0241490830664349,0.0577191432765953,0.0193192664531479
4.18167631351375e-06,3.11639897574077,0.0284593101807996,0.0652033415488836,0.0227674481446397
4.43167631351375e-06,3.29820628898577,0.0331969971918112,0.0731291071421042,0.026557597753449
4.68167631351375e-06,3.47881309733791,0.0383716492932835,0.0814932608457108,0.0306973194346268
4.93167631351375e-06,3.65896842735291,0.0439917085927294,0.0902925537850389,0.0351933668741836
5.18167631351375e-06,3.83779405041065,0.0500646211665031,0.0995235397123664,0.0400516969332025
5.43167631351375e-06,4.01611960563065,0.0565969053454269,0.10918270711065,0.0452775242763416
5.68167631351375e-06,4.19298756409879,0.0635942090005507,0.119266355456012,0.0508753672004406
5.93167631351375e-06,4.36930735873879,0.0710613685503383,0.129770722752242,0.0568490948402707
6.18167631351375e-06,4.54404310529087,0.079002457866585,0.140691865790874,0.063201966293268
6.43167631351375e-06,4.71818313299087,0.0874208393056154,0.152025783232403,0.0699366714444923
6.68167631351375e-06,4.89061422454072,0.0963192054368627,0.163768299808578,0.0770553643494902
6.93167631351375e-06,5.06240263012072,0.105699623226022,0.175915185115754,0.0845596985808176
7.18167631351375e-06,5.23235889800044,0.115563569624215,0.188462041655589,0.0924508556993718
7.43167631351375e-06,5.40162614704544,0.125911969877212,0.201404419529307,0.10072957590177
7.68167631351375e-06,5.56893986494084,0.136745227869204,0.214737708188196,0.109396182295363
7.93167631351375e-06,5.73551891111584,0.148063259397482,0.228457247222899,0.118450607517985
8.18167631351375e-06,5.90002496058284,0.15986551803962,0.242558221686487,0.127892414431696
8.43167631351375e-06,6.06375141047284,0.172151024115578,0.257035769166367,0.137720819292462
8.68167631351375e-06,6.22528744390615,0.18491838673858,0.271884878545079,0.147934709390864
8.93167631351375e-06,6.38599971928114,0.198165829084667,0.287100493528317,0.158532663267733
9.18167631351375e-06,6.54440632011549,0.211891207193743,0.302677414717816,0.169512965754994
9.43167631351375e-06,6.70194581735549,0.226092032078389,0.318610399750652,0.180873625662711
9.68167631351375e-06,6.85706665739766,0.240765485760684,0.334894068572083,0.192612388608547
9.93167631351375e-06,7.01127790403766,0.255908440675926,0.351523000320793,0.204726752540741
1.01816763135137e-05,7.16295989775146,0.271517473361224,0.368491641705071,0.217213978688979
1.04316763135137e-05,7.31369070591646,0.287588881544156,0.385794400747717,0.230071105235325
1.06816763135137e-05,7.4617841614814,0.304118695839303,0.403425558185159,0.243294956671442
1.09316763135137e-05,7.6088857780514,0.321102694855432,0.421379358165299,0.256882155884345
1.11816763135137e-05,7.75324454511138,0.338536415204789,0.439649922605299,0.270829132163831
1.14316763135137e-05,7.89657179856138,0.3564151649139,0.458231338916323,0.28513213193112
1.16816763135137e-05,8.03705341244131,0.37473403200639,0.477117577270802,0.299787225605112
1.19316763135137e-05,8.17646485607131,0.393487896460876,0.496302575410401,0.314790317168701
1.21816763135137e-05,8.31293067838003,0.412671437590338,0.515780158787631,0.330137150072271
1.24316763135137e-05,8.44828872993003,0.432279144754889,0.535544122497419,0.345823315803911
1.26816763135137e-05,8.5806040853739,0.452305323728369,0.555588154270414,0.361844258982695
1.29316763135137e-05,8.71177516278389,0.472744106343214,0.575905913554545,0.378195285074571
1.31816763135137e-05,8.83980947208173,0.493589456007252,0.596490957348448,0.394871564805802
1.34316763135137e-05,8.96666412533673,0.514835176431703,0.617336816447154,0.411868141145362
1.36816763135137e-05,9.09029103408166,0.536474916437431,0.638436924113581,0.429179933149945
1.39316763135137e-05,9.21270407295166,0.558502177894723,0.659784689492084,0.446801742315779
1.41816763135137e-05,9.33180157631354,0.58091031993795,0.681373429124045,0.46472825595036
1.44316763135137e-05,9.44965219391354,0.603692566226584,0.70319643752423,0.482954052981268
1.46816763135137e-05,9.5641027570341,0.626842008669857,0.7252469215532,0.501473606935886
1.49316763135137e-05,9.6772746490291,0.650351614102101,0.747518068144143,0.520281291281681
1.51816763135137e-05,9.78696532301859,0.674214227604092,0.770002981550351,0.539371382083274
1.54316763135137e-05,9.89534680241359,0.698422578671801,0.792694748204263,0.558738062937441
1.56816763135137e-05,10.0001693358161,0.7229692842084,0.815586376862555,0.57837542736672
1.59316763135137e-05,10.1036534431711,0.74784685425351,0.838670860574472,0.598277483402808
1.61816763135137e-05,10.2035043888038,0.773047694708948,0.861941119750392,0.618438155767158
1.64316763135137e-05,10.3019889978038,0.798564112685356,0.88539006121295,0.638851290148285
1.66816763135137e-05,10.3967698148575,0.824388319015431,0.909010524217306,0.659510655212345
1.69316763135137e-05,10.4901577331075,0.85051243326607,0.932795336555943,0.680409946612856
1.71816763135137e-05,10.5797748843656,0.876928486084834,0.956737263560424,0.701542788867867
1.74316763135137e-05,10.6679739492656,0.9036284239183,0.980829061229009,0.72290273913464
1.76816763135137e-05,10.7523389933675,0.930604111230658,1.00506342824057,0.744483288984526
1.79316763135137e-05,10.8352621630175,0.957847334962592,1.02943305607313,0.766277867970074
1.81816763135137e-05,10.9142918418724,0.985349806655068,1.05393058406113,0.788279845324055
1.84316763135137e-05,10.9918572811724,1.01310316667765,1.07854864647248,0.810482533342123
1.86816763135137e-05,11.0654736020615,1.04109898628549,1.10327983063957,0.832879189028393
1.89316763135137e-05,11.1376047633115,1.06932877164133,1.1281167209629,0.855463017313062
1.91816763135137e-05,11.2057350757824,1.09778396582937,1.15305186014583,0.878227172663497
1.94316763135137e-05,11.2723607741824,1.12645595269135,1.17807779009322,0.901164762153081
1.96816763135137e-05,11.3349378418064,1.15533605881728,1.20318701627889,0.924268847053825
1.99316763135137e-05,11.3959923258064,1.1844155572125,1.22837204550885,0.947532445770003
2.01816763135137e-05,11.4529543926408,1.21368566928221,1.25362535344886,0.970948535425767
2.04316763135137e-05,11.5083774089408,1.24313756834358,1.27893941922315,0.994510054674864
2.06816763135137e-05,11.5596682602772,1.27276238161815,1.30430669612738,1.01820990529452
2.09316763135137e-05,11.6094051129772,1.30255119360069,1.32971964303574,1.04204095488055
2.11816763135137e-05,11.6549741309677,1.33249504807121,1.35517069832323,1.06599603845697
2.14316763135137e-05,11.6989757358677,1.36258495133022,1.38065230805574,1.09006796106417
2.16816763135137e-05,11.7387779493185,1.39281187424004,1.40615690314249,1.11424949939203
2.19316763135137e-05,11.7770008820185,1.42316675533435,1.43167692428617,1.13853340426748
2.21816763135137e-05,11.8109970110024,1.45364050289684,1.45720480238505,1.16291240231747
2.24316763135137e-05,11.8434035502024,1.48422399795135,1.48273298022213,1.18737919836108
2.26816763135137e-05,11.8715600446712,1.51490809638444,1.50825389613282,1.21192647710755
2.29316763135137e-05,11.8981182090212,1.54568363182119,1.53376000241516,1.23654690545695
2.31816763135137e-05,11.9204072818407,1.57654141779694,1.55924375227686,1.26123313423756
2.34316763135137e-05,11.9410908615407,1.60747225052277,1.58469761495103,1.28597780041821
2.36816763135137e-05,11.9574905161298,1.63846691111048,1.6101140659338,1.31077352888838
2.39316763135137e-05,11.9722790990798,1.66951616823101,1.63548559879264,1.33561293458481
2.41816763135137e-05,11.9827731509828,1.70061078039584,1.66080471870207,1.36048862431667
2.44316763135137e-05,11.9916521426328,1.73174149851059,1.68606395093504,1.38539319880848
2.46816763135137e-05,11.9962302354446,1.76289906821522,1.71125583770189,1.41031925457218
2.49316763135137e-05,11.9991908732446,1.79407423233465,1.73637294331779,1.43525938586772
2.51816763135137e-05,11.9978484889554,1.82525773327923,1.76140785434718,1.46020618662339
2.54316763135137e-05,11.9948878511554,1.85644031539378,1.78635318144324,1.48515225231502
2.56816763135137e-05,11.9876263145172,1.88761272741923,1.8112015627966,1.51009018193538
2.59316763135137e-05,11.9787473228672,1.91876572474079,1.83594566264613,1.53501257979263
2.61816763135137e-05,11.9655738001702,1.94989007191135,1.86057817802802,1.55991205752908
2.64316763135137e-05,11.9507852172202,1.98097654479917,1.88509183396007,1.58478123583934
2.66816763135137e-05,11.9317127091593,2.01201593317295,1.90947939348364,1.60961274653836
2.69316763135137e-05,11.9110291294593,2.04299904274921,1.93373364952706,1.63439923419937
2.71816763135137e-05,11.8860764582288,2.07391669783861,1.95784743823003,1.65913335827089
2.74316763135137e-05,11.8595182938788,2.10475974329291,1.98181362749472,1.68380779463433
2.76816763135137e-05,11.8287100847976,2.13551904721169,2.00562513357939,1.70841523776935
2.79316763135137e-05,11.7963035455976,2.16618550278875,2.02927490634876,1.732948402231
2.81816763135137e-05,11.7596702026815,2.19675003107797,2.05275594911983,1.75740002486237
2.84316763135137e-05,11.7214472699815,2.22720358273872,2.07606130062659,1.78176286619098
2.86816763135137e-05,11.6790249458323,2.25753714085955,2.09918405809829,1.80602971268764
2.89316763135137e-05,11.6350233409323,2.28774172260201,2.12211735595654,1.83019337808161
2.91816763135137e-05,11.5868539013228,2.31780838208049,2.14485439210347,1.85424670566439
2.94316763135137e-05,11.5371170486228,2.34772821190394,2.16738840337229,1.87818256952315
2.96816763135137e-05,11.4832480309592,2.37749234610995,2.1897126949986,1.90199387688796
2.99316763135137e-05,11.4278250146592,2.40709196160372,2.21182061284925,1.92567356928297
3.01816763135137e-05,11.3683095811936,2.43651828114423,2.23370557604794,1.94921462491538
3.04316763135137e-05,11.3072550971936,2.46576257467986,2.25536104600969,1.97261005974389
3.06816763135137e-05,11.2421519824177,2.49481616238445,2.2767805621882,1.99585292990756
3.09316763135137e-05,11.1755262840177,2.52367041588878,2.29795770794673,2.01893633271103
3.11816763135137e-05,11.1048997368386,2.55231676136417,2.31888614939213,2.04185340909133
3.14316763135137e-05,11.0327685755886,2.5807466806492,2.33955959811589,2.06459734451936
3.16816763135137e-05,10.9566882959276,2.60895171437825,2.35997185307627,2.0871613715026
3.19316763135137e-05,10.8791228566276,2.63692346300289,2.38011676024627,2.10953877040231
3.21816763135137e-05,10.7976639265325,2.66465358996266,2.39998825750255,2.13172287197013
3.24316763135137e-05,10.7147407568825,2.69213382260046,2.41958033122029,2.15370705808037
3.26816763135137e-05,10.6279835664345,2.7193559553729,2.43888706412449,2.17548476429832
3.29316763135137e-05,10.5397845015345,2.74631185065911,2.45790258887474,2.19704948052729
3.31816763135137e-05,10.4478146696425,2.7729934420078,2.47662113883174,2.21839475360624
3.34316763135137e-05,10.3544267513925,2.79939273483903,2.49503699867766,2.23951418787122
3.36816763135137e-05,10.2573350411962,2.82550180972494,2.51314455804761,2.26040144777995
3.39316763135137e-05,10.1588504321962,2.85131282298413,2.53093825923443,2.28105025838731
3.41816763135137e-05,10.056732661474,2.87681800999308,2.54841265363228,2.30145440799447
3.44316763135137e-05,9.95324855411896,2.90200968567261,2.56556234657747,2.32160774853809
3.46816763135137e-05,9.84620550077143,2.92688024782705,2.58238205654846,2.34150419826164
3.49316763135137e-05,9.73782402137643,2.95142217752248,2.59886655719723,2.36113774201799
3.51816763135137e-05,9.62596132397592,2.97562804245049,2.61501073924717,2.38050243396039
3.54316763135137e-05,9.51278943198092,2.999490497198,2.6308095497722,2.3995923977584
3.56816763135137e-05,9.39621748550649,3.02300228663235,2.64625805673151,2.41840182930588
3.59316763135137e-05,9.27836686790649,3.04615624606271,2.66135138555635,2.43692499685017
3.61816763135137e-05,9.15720071479837,3.06894530464326,2.67608478625792,2.4551562437146
3.64316763135137e-05,9.03478767592837,3.09136248542597,2.69045356738447,2.47308998834077
3.66816763135137e-05,8.90914689254831,3.11340090877877,2.70445316563604,2.49072072702302
3.69316763135137e-05,8.78229223929331,3.13505379232981,2.71807907725705,2.50804303386385
3.71816763135137e-05,8.65230081792614,3.15631445439717,2.73132693008927,2.52505156351774
3.74316763135137e-05,8.52112974051614,3.17717631382479,2.74419241246759,2.54174105105983
3.76816763135137e-05,8.38691596700001,3.19763289342046,2.75667134764004,2.55810631473637
3.79316763135137e-05,8.25155791545001,3.21767781968361,2.76875962023696,2.57414225574689
3.81816763135137e-05,8.11325424257873,3.23730482624832,2.78045325298465,2.58984386099866
3.84316763135137e-05,7.97384279894873,3.2565077535032,2.79174833082048,2.60520620280256
3.86816763135137e-05,7.83158571574866,3.27528055203606,2.80264107982447,2.62022444162885
3.89316763135137e-05,7.68825846229866,3.29361728214649,2.8131277890552,2.63489382571719
3.91816763135137e-05,7.54218835933865,3.31151211728866,2.82320489162148,2.64920969383093
3.94316763135137e-05,7.39508674276864,3.32895934347712,2.83286888431622,2.66316747478169
3.96816763135137e-05,7.24534777359859,3.34595336272455,2.84211641074806,2.67676269017964
3.99316763135137e-05,7.09461696543359,3.36248869234122,2.85094417885258,2.68999095387298
4.01816763135137e-05,6.9413569043424,3.37855996836439,2.85934904600192,2.70284797469151
4.04316763135137e-05,6.78714565770239,3.39416194475219,2.8673279344747,2.71532955580175
4.06816763135137e-05,6.63051575386457,3.40928949680124,2.87487791845955,2.727431597441
4.09316763135137e-05,6.47297625662456,3.4239376202359,2.88199613756721,2.73915009618872
4.11816763135137e-05,6.31313108484392,3.43810143461064,2.88867988564216,2.75048114768851
4.14316763135137e-05,6.15241880946891,3.45177618229557,2.8949265224022,2.76142094583646
4.16816763135137e-05,5.98951611763723,3.46495723186036,2.9007335639706,2.77196578548829
4.19316763135137e-05,5.82578966774722,3.47764007695695,2.90609859273029,2.78211206156556
4.21816763135137e-05,5.65999022114922,3.48982033968172,2.91101934948714,2.79185627174538
4.24316763135137e-05,5.49341117497422,3.50149376935655,2.9154936416278,2.80119501548524
4.26816763135137e-05,5.32487859764963,3.51265624586588,2.91951943682321,2.81012499669271
4.29316763135137e-05,5.15561134860463,3.52330377833736,2.92309476958068,2.81864302266989
4.31816763135137e-05,4.98451196185934,3.5334325084505,2.92621783639506,2.8267460067604
4.34316763135137e-05,4.81272355627935,3.54303870901825,2.92888690078738,2.8344309672146
4.36816763135137e-05,4.63922621454919,3.55211878726404,2.93110038980978,2.84169502981123
4.39316763135137e-05,4.4650861868492,3.56066928330557,2.93285679766436,2.84853542664446
4.41816763135137e-05,4.28936211106128,3.56868687339707,2.93415478346672,2.85494949871766
4.44316763135137e-05,4.11304231642129,3.57616836831688,2.93499307354009,2.8609346946535
4.46816763135137e-05,3.93526492502942,3.58311071657161,2.93537056034097,2.86648857325729
4.49316763135136e-05,3.75693936980942,3.58951100268922,2.93528620352501,2.87160880215138
4.51816763135136e-05,3.57728410763217,3.5953664503819,2.9347391299371,2.87629316030552
4.54316763135136e-05,3.39712877761717,3.60067442074625,2.93372853354662,2.880539536597
4.56816763135136e-05,3.21577294270931,3.60543241538187,2.93225377640332,2.88434593230549
4.59316763135136e-05,3.03396562946431,3.60963807450037,2.93031428754074,2.8877104596003
4.61816763135136e-05,2.85108819813845,3.61328917999663,2.92790966479817,2.8906313439973
4.64316763135136e-05,2.66780832352845,3.61638365346852,2.92503957279201,2.89310692277481
4.66816763135136e-05,2.48358977373034,3.6189195592377,2.9217038455034,2.89513564739016
4.69316763135136e-05,2.29901821286535,3.62089510228211,2.91790238341815,2.89671608182569
4.71816763135136e-05,2.11364034606165,3.62230863120335,2.91363525677882,2.89784690496268
4.74316763135136e-05,1.92795924878665,3.62315863607392,2.9089026019947,2.89852690885913
4.76816763135136e-05,1.74160501055366,3.62344375134821,2.90370472545646,2.89875500107857
4.79316763135136e-05,1.55499762169867,3.62316275362671,2.89804199931847,2.89853020290137
4.81816763135136e-05,1.36785092116951,3.62231456450778,2.89191496577345,2.89785165160623
4.84316763135136e-05,1.18050139969451,3.62089824827089,2.88532423231005,2.89671859861671
4.86816763135136e-05,0.992746928068819,3.61891301466643,2.87827057634461,2.89513041173314
4.89316763135136e-05,0.804840165334824,3.6163582165203,2.87075484005731,2.89308657321624
4.91816763135136e-05,0.616663213606991,3.61323335245897,2.86277803527783,2.89058668196718
4.94316763135136e-05,0.428384650899986,3.60953806443782,2.85434123800386,2.88763045155026
4.96816763135136e-05,0.239970927002332,3.60527214039872,2.84544569343711,2.88421771231897
4.99316763135136e-05,0.051506372533332,3.60043551172453,2.83609271028826,2.88034840937962
5.01816763135136e-05,-0.136958181935668,3.59502825582667,2.82628376585971,2.87602260466134
5.04316763135136e-05,-0.325422736404668,3.5890505935283,2.81602040024128,2.87124047482264
5.06816763135136e-05,-0.513752129683013,3.58250289157918,2.80530432133599,2.86600231326334
5.09316763135136e-05,-0.702030692390011,3.57538565997021,2.79413729905091,2.86030852797617
5.11816763135136e-05,-0.890039066103178,3.5676995543732,2.78252127016228,2.85415964349856
5.14316763135136e-05,-1.07794582883718,3.55944537338924,2.77045823260599,2.84755629871139
5.16816763135136e-05,-1.26544764142049,3.55062406091103,2.75795035007857,2.84049924872883
